name,type,start_time,duration,"address","data","count"
"I2C Transactions","hi2c",0.329112,4.9e-05,"0x1d","0x0",0x0000000000000001
"I2C Transactions","hi2c",0.330109,5.3e-05,"0x1d","0x20",0x0000000000000001
"I2C Transactions","hi2c",0.331118,4.9e-05,"0x1d","0x81",0x0000000000000001
"I2C Transactions","hi2c",0.332109,0.005569,"0x1d","0xef, 0x0, 0xff, 0xf0, 0x1, 0xff, 0xef, 0x1, 0xff, 0xef, 0x0, 0xff, 0xf0, 0x0, 0xff, 0xef, 0x1, 0x0, 0xef, 0x0, 0xff, 0xf0, 0x0, 0x0, 0xef, 0x1, 0x0, 0xef, 0x0, 0xff, 0xf0, 0x1, 0x0, 0xef, 0x1, 0x0, 0xef, 0x1, 0xff, 0xf0, 0x1, 0x0, 0xef, 0x1, 0x0, 0xef, 0x1, 0xff, 0xf0, 0x1, 0x0, 0xef, 0x1, 0x0, 0xef, 0x1, 0xff, 0xf0, 0x1, 0x0, 0xef, 0x1, 0x0, 0xef, 0x1, 0xff, 0xf0, 0x1, 0x0, 0xef, 0x1, 0x0, 0xf0, 0x1, 0xff, 0xf0, 0x1, 0x0, 0xef, 0x1, 0x0, 0xef, 0x1, 0xff, 0xf0, 0x1, 0x0, 0xef, 0x2, 0x0, 0xef, 0x1, 0xff, 0xf0, 0x1, 0x0",0x0000000000000060
"I2C Transactions","hi2c",1.339083,5e-05,"0x1d","0x0",0x0000000000000001
"I2C Transactions","hi2c",1.339141,5.3e-05,"0x1d","0x20",0x0000000000000001
"I2C Transactions","hi2c",1.339211,4.9e-05,"0x1d","0x81",0x0000000000000001
"I2C Transactions","hi2c",1.339268,0.002641,"0x1d","0xef, 0x2, 0x0, 0xef, 0x0, 0xff, 0xef, 0x0, 0xff, 0xef, 0x0, 0xff, 0xef, 0x0, 0xff, 0xef, 0x0, 0xff, 0xef, 0x0, 0xff, 0xef, 0x0, 0xff, 0xef, 0x0, 0xff, 0xf0, 0x0, 0xff, 0xef, 0x0, 0xff, 0xef, 0x0, 0xff, 0xef, 0x0, 0xff, 0xef, 0x0, 0xff, 0xf0, 0x0, 0xff, 0xef, 0x0, 0xff, 0xef, 0x0, 0xff, 0xef, 0x0, 0xff, 0xf0, 0x0, 0xff, 0xf0, 0x0, 0xff, 0xef, 0x0, 0xff, 0xef, 0x0, 0xff, 0xef, 0x0, 0xff, 0xef, 0x0, 0xff, 0xf0, 0x0, 0xff, 0xef, 0x0, 0xff, 0xef, 0x0, 0xff, 0xf0, 0x0, 0xff, 0xf0, 0x0, 0xff, 0xf0, 0x0, 0xff, 0xef, 0x0, 0xff, 0xf0, 0x1, 0xff",0x0000000000000060
"I2C Transactions","hi2c",1.46608,4.9e-05,"0x1d","0x0",0x0000000000000001
"I2C Transactions","hi2c",1.467075,5.3e-05,"0x1d","0xe0",0x0000000000000001
"I2C Transactions","hi2c",1.468084,5e-05,"0x1d","0x81",0x0000000000000001
"I2C Transactions","hi2c",1.469075,0.00557,"0x1d","0xef, 0x1, 0xff, 0xf0, 0xfd, 0xfe, 0xef, 0xfc, 0xfe, 0xef, 0xfc, 0xff, 0xf0, 0xfc, 0xff, 0xef, 0xfc, 0xff, 0xef, 0xfc, 0xff, 0xef, 0xfc, 0x0, 0xef, 0xfc, 0x0, 0xf0, 0xfc, 0x0, 0xef, 0xfc, 0x0, 0xef, 0xfc, 0x0, 0xef, 0xfb, 0x0, 0xef, 0xfb, 0x0, 0xf0, 0x3e, 0x40, 0xf1, 0x77, 0x2a, 0xd, 0x6a, 0x68, 0xf5, 0x2a, 0x3b, 0xc, 0xf5, 0xeb, 0xe4, 0xf7, 0xe8, 0xd3, 0x1, 0xa, 0xe9, 0x19, 0xf1, 0xf2, 0x29, 0xee, 0xef, 0x1d, 0xee, 0xf3, 0x14, 0xf6, 0xfb, 0x8, 0xfa, 0xf7, 0xfe, 0xf9, 0xf6, 0xf9, 0xfc, 0xe0, 0xfb, 0x4, 0xe4, 0xfb, 0xa, 0xf2, 0x1, 0xb, 0x1a, 0x1, 0xff",0x0000000000000060
"I2C Transactions","hi2c",1.474653,4.9e-05,"0x1d","0x22",0x0000000000000001
"I2C Transactions","hi2c",1.475075,5.3e-05,"0x1d","0xc0",0x0000000000000001
"I2C Transactions","hi2c",1.4791,5e-05,"0x1d","0x0",0x0000000000000001
"I2C Transactions","hi2c",1.480499,5.3e-05,"0x1d","0x4",0x0000000000000001
"I2C Transactions","hi2c",1.48153,4.9e-05,"0x1d","0x81",0x0000000000000001
"I2C Transactions","hi2c",1.483075,0.001767,"0x1d","0xe7, 0xf5, 0x5, 0xef, 0xf6, 0x5, 0xf5, 0xf8, 0x9, 0xf9, 0xf8, 0x8",0x000000000000000C
"I2C Transactions","hi2c",1.48485,4.9e-05,"0x1d","0x22",0x0000000000000001
"I2C Transactions","hi2c",1.485456,5.3e-05,"0x1d","0x0",0x0000000000000001
"I2C Transactions","hi2c",2.660164,5e-05,"0x1d","0x0",0x0000000000000001
"I2C Transactions","hi2c",2.660222,5.3e-05,"0x1d","0x20",0x0000000000000001
"I2C Transactions","hi2c",2.660292,4.9e-05,"0x1d","0x81",0x0000000000000001
"I2C Transactions","hi2c",2.660349,0.002641,"0x1d","0xef, 0x0, 0xff, 0xef, 0x0, 0x0, 0xef, 0x0, 0x0, 0xf0, 0x0, 0x0, 0xf0, 0x0, 0x0, 0xef, 0x0, 0x0, 0xef, 0x0, 0xff, 0xef, 0x0, 0x0, 0xef, 0x0, 0x0, 0xef, 0x0, 0xff, 0xef, 0x0, 0x0, 0xef, 0x0, 0x0, 0xef, 0x0, 0x0, 0xf0, 0x0, 0x0, 0xf0, 0x0, 0x0, 0xef, 0x0, 0x0, 0xef, 0x0, 0xff, 0xef, 0x0, 0x0, 0xef, 0x0, 0xff, 0xef, 0x0, 0xff, 0xef, 0x0, 0x0, 0xef, 0x0, 0x0, 0xef, 0x0, 0x0, 0xf0, 0x0, 0x0, 0xf0, 0x0, 0xff, 0xef, 0x0, 0x0, 0xef, 0x0, 0x0, 0xef, 0x0, 0xff, 0xef, 0x0, 0x0, 0xef, 0x0, 0x0, 0xef, 0x0, 0xff, 0xef, 0x0, 0x0",0x0000000000000060
